T1510 000:003.079   SEGGER J-Link V7.82 Log File
T1510 000:003.158   DLL Compiled: Oct 13 2022 13:32:51
T1510 000:003.167   Logging started @ 2023-10-09 07:03
T1510 000:003.174 - 3.178ms
T1510 000:003.184 JLINK_SetWarnOutHandler(...)
T1510 000:003.193 - 0.012ms
T1510 000:003.202 JLINK_OpenEx(...)
T1510 000:004.903   Firmware: J-Link V9 compiled May  7 2021 16:26:12
T1510 000:005.406   Firmware: J-Link V9 compiled May  7 2021 16:26:12
T1510 000:005.528   Decompressing FW timestamp took 93 us
T1510 000:015.963   Hardware: V9.40
T1510 000:015.987   S/N: 69406604
T1510 000:015.999   OEM: SEGGER
T1510 000:016.011   Feature(s): RDI, GDB, FlashDL, FlashBP, JFlash
T1510 000:017.973   TELNET listener socket opened on port 19021
T1510 000:018.033   WEBSRV WEBSRV_Init(): Starting webserver thread(s)
T1510 000:018.122   WEBSRV Webserver running on local port 19080
T1510 000:020.944 - 17.755ms returns "O.K."
T1510 000:020.969 JLINK_GetEmuCaps()
T1510 000:020.978 - 0.012ms returns 0xB9FF7BBF
T1510 000:020.989 JLINK_TIF_GetAvailable(...)
T1510 000:021.322 - 0.341ms
T1510 000:021.337 JLINK_SetErrorOutHandler(...)
T1510 000:021.346 - 0.012ms
T1510 000:021.364 JLINK_ExecCommand("ProjectFile = "D:\墨现-工作资料\3.项目\16x16_BLE\Software_Sample_16x16_BLE\16x16_BLE\16x16_Ble\Project\Keil_project\JLinkSettings.ini"", ...). 
T1510 000:030.960   Device "CORTEX-M4" selected.
T1510 000:031.268 - 9.912ms returns 0x00
T1510 000:034.415 JLINK_ExecCommand("Device = GD32E103CB", ...). 
T1510 000:036.872   Device "GD32E103CB" selected.
T1510 000:037.172 - 2.741ms returns 0x00
T1510 000:037.188 JLINK_ExecCommand("DisableConnectionTimeout", ...). 
T1510 000:037.198 - 0.005ms returns 0x01
T1510 000:037.208 JLINK_GetHardwareVersion()
T1510 000:037.216 - 0.012ms returns 94000
T1510 000:037.228 JLINK_GetDLLVersion()
T1510 000:037.236 - 0.011ms returns 78200
T1510 000:037.245 JLINK_GetOEMString(...)
T1510 000:037.253 JLINK_GetFirmwareString(...)
T1510 000:037.261 - 0.011ms
T1510 000:043.607 JLINK_GetDLLVersion()
T1510 000:043.632 - 0.029ms returns 78200
T1510 000:043.641 JLINK_GetCompileDateTime()
T1510 000:043.649 - 0.011ms
T1510 000:045.535 JLINK_GetFirmwareString(...)
T1510 000:045.556 - 0.025ms
T1510 000:047.509 JLINK_GetHardwareVersion()
T1510 000:047.527 - 0.022ms returns 94000
T1510 000:049.860 JLINK_GetSN()
T1510 000:049.882 - 0.027ms returns 69406604
T1510 000:051.835 JLINK_GetOEMString(...)
T1510 000:055.711 JLINK_TIF_Select(JLINKARM_TIF_SWD)
T1510 000:057.275 - 1.573ms returns 0x00
T1510 000:057.290 JLINK_HasError()
T1510 000:057.303 JLINK_SetSpeed(20000)
T1510 000:057.545 - 0.246ms
T1510 000:057.556 JLINK_GetId()
T1510 000:168.328   Failed to attach to CPU. Trying connect under reset.
T1510 000:173.362   Found SW-DP with ID 0x2BA01477
T1510 000:179.144   SWD speed too high. Reduced from 12000 kHz to 8100 kHz for stability
T1510 000:185.695   DPIDR: 0x2BA01477
T1510 000:190.230   CoreSight SoC-400 or earlier
T1510 000:194.165   Scanning AP map to find all available APs
T1510 000:199.091   AP[1]: Stopped AP scan as end of AP map has been reached
T1510 000:203.024   AP[0]: AHB-AP (IDR: 0x24770011)
T1510 000:207.136   Iterating through AP map to find AHB-AP to use
T1510 000:212.363   AP[0]: Core found
T1510 000:216.327   AP[0]: AHB-AP ROM base: 0xE00FF000
T1510 000:219.645   CPUID register: 0x410FC241. Implementer code: 0x41 (ARM)
T1510 000:222.275   Found Cortex-M4 r0p1, Little endian.
T1510 000:223.110   -- Max. mem block: 0x00010E60
T1510 000:223.500   CPU_ReadMem(4 bytes @ 0xE000EDF0)
T1510 000:224.037   CPU_WriteMem(4 bytes @ 0xE000EDF0)
T1510 000:224.504   CPU_ReadMem(4 bytes @ 0xE0002000)
T1510 000:227.081   FPUnit: 6 code (BP) slots and 2 literal slots
T1510 000:227.106   CPU_ReadMem(4 bytes @ 0xE000EDFC)
T1510 000:227.587   CPU_WriteMem(4 bytes @ 0xE000EDFC)
T1510 000:228.071   CPU_ReadMem(4 bytes @ 0xE0001000)
T1510 000:228.556   CPU_WriteMem(4 bytes @ 0xE0001000)
T1510 000:229.059   CPU_ReadMem(4 bytes @ 0xE000ED88)
T1510 000:229.585   CPU_WriteMem(4 bytes @ 0xE000ED88)
T1510 000:230.136   CPU_ReadMem(4 bytes @ 0xE000ED88)
T1510 000:230.613   CPU_WriteMem(4 bytes @ 0xE000ED88)
T1510 000:233.329   CoreSight components:
T1510 000:235.368   ROMTbl[0] @ E00FF000
T1510 000:235.391   CPU_ReadMem(64 bytes @ 0xE00FF000)
T1510 000:236.225   CPU_ReadMem(32 bytes @ 0xE000EFE0)
T1510 000:239.426   [0][0]: E000E000 CID B105E00D PID 000BB00C SCS-M7
T1510 000:239.450   CPU_ReadMem(32 bytes @ 0xE0001FE0)
T1510 000:242.326   [0][1]: E0001000 CID B105E00D PID 003BB002 DWT
T1510 000:242.351   CPU_ReadMem(32 bytes @ 0xE0002FE0)
T1510 000:245.088   [0][2]: E0002000 CID B105E00D PID 002BB003 FPB
T1510 000:245.112   CPU_ReadMem(32 bytes @ 0xE0000FE0)
T1510 000:247.909   [0][3]: E0000000 CID B105E00D PID 003BB001 ITM
T1510 000:247.933   CPU_ReadMem(32 bytes @ 0xE0040FE0)
T1510 000:250.647   [0][4]: E0040000 CID B105900D PID 000BB9A1 TPIU
T1510 000:250.670   CPU_ReadMem(32 bytes @ 0xE0041FE0)
T1510 000:254.560   [0][5]: E0041000 CID 00000000 PID 00000000 ???
T1510 000:255.040 - 197.510ms returns 0x2BA01477
T1510 000:255.095 JLINK_GetDLLVersion()
T1510 000:255.115 - 0.028ms returns 78200
T1510 000:255.135 JLINK_CORE_GetFound()
T1510 000:255.152 - 0.024ms returns 0xE0000FF
T1510 000:255.171 JLINK_GetDebugInfo(0x100 = JLINKARM_ROM_TABLE_ADDR_INDEX)
T1510 000:255.196   Value=0xE00FF000
T1510 000:255.221 - 0.058ms returns 0
T1510 000:259.492 JLINK_GetDebugInfo(0x100 = JLINKARM_ROM_TABLE_ADDR_INDEX)
T1510 000:259.530   Value=0xE00FF000
T1510 000:259.565 - 0.077ms returns 0
T1510 000:259.576 JLINK_GetDebugInfo(0x101 = JLINKARM_DEBUG_INFO_ETM_ADDR_INDEX)
T1510 000:259.585   Value=0x00000000
T1510 000:259.597 - 0.024ms returns 0
T1510 000:259.610 JLINK_ReadMemEx(0xE0041FF0, 0x10 Bytes, Flags = 0x02000004)
T1510 000:259.632   CPU_ReadMem(16 bytes @ 0xE0041FF0)
T1510 000:260.217   Data:  00 00 00 00 00 00 00 00 00 00 00 00 00 00 00 00
T1510 000:260.245 - 0.642ms returns 16 (0x10)
T1510 000:260.264 JLINK_GetDebugInfo(0x102 = JLINKARM_DEBUG_INFO_MTB_ADDR_INDEX)
T1510 000:260.280   Value=0x00000000
T1510 000:260.303 - 0.046ms returns 0
T1510 000:260.319 JLINK_GetDebugInfo(0x103 = JLINKARM_DEBUG_INFO_TPIU_ADDR_INDEX)
T1510 000:260.335   Value=0xE0040000
T1510 000:260.356 - 0.044ms returns 0
T1510 000:260.372 JLINK_GetDebugInfo(0x104 = JLINKARM_DEBUG_INFO_ITM_ADDR_INDEX)
T1510 000:260.387   Value=0xE0000000
T1510 000:260.409 - 0.044ms returns 0
T1510 000:260.425 JLINK_GetDebugInfo(0x105 = JLINKARM_DEBUG_INFO_DWT_ADDR_INDEX)
T1510 000:260.445   Value=0xE0001000
T1510 000:260.457 - 0.036ms returns 0
T1510 000:260.466 JLINK_GetDebugInfo(0x106 = JLINKARM_DEBUG_INFO_FPB_ADDR_INDEX)
T1510 000:260.474   Value=0xE0002000
T1510 000:260.486 - 0.023ms returns 0
T1510 000:260.494 JLINK_GetDebugInfo(0x107 = JLINKARM_DEBUG_INFO_NVIC_ADDR_INDEX)
T1510 000:260.502   Value=0xE000E000
T1510 000:260.517 - 0.027ms returns 0
T1510 000:260.525 JLINK_GetDebugInfo(0x10C = JLINKARM_DEBUG_INFO_DBG_ADDR_INDEX)
T1510 000:260.533   Value=0xE000EDF0
T1510 000:260.545 - 0.022ms returns 0
T1510 000:260.553 JLINK_GetDebugInfo(0x01 = Unknown)
T1510 000:260.564   Value=0x00000001
T1510 000:260.575 - 0.026ms returns 0
T1510 000:260.584 JLINK_ReadMemU32(0xE000ED00, 0x1 Items)
T1510 000:260.595   CPU_ReadMem(4 bytes @ 0xE000ED00)
T1510 000:261.095   Data:  41 C2 0F 41
T1510 000:261.110   Debug reg: CPUID
T1510 000:261.121 - 0.541ms returns 1 (0x1)
T1510 000:261.130 JLINK_GetDebugInfo(0x10F = JLINKARM_DEBUG_INFO_HAS_CORTEX_M_SECURITY_EXT_INDEX)
T1510 000:261.139   Value=0x00000000
T1510 000:261.150 - 0.023ms returns 0
T1510 000:261.159 JLINK_HasError()
T1510 000:261.168 JLINK_SetResetType(JLINKARM_CM3_RESET_TYPE_NORMAL)
T1510 000:261.176 - 0.012ms returns JLINKARM_CM3_RESET_TYPE_NORMAL
T1510 000:261.185 JLINK_Reset()
T1510 000:261.199   CPU is running
T1510 000:261.211   CPU_WriteMem(4 bytes @ 0xE000EDF0)
T1510 000:261.683   CPU is running
T1510 000:261.698   CPU_WriteMem(4 bytes @ 0xE000EDFC)
T1510 000:269.694   Reset: Halt core after reset via DEMCR.VC_CORERESET.
T1510 000:277.172   Reset: Reset device via AIRCR.SYSRESETREQ.
T1510 000:277.202   CPU is running
T1510 000:277.216   CPU_WriteMem(4 bytes @ 0xE000ED0C)
T1510 000:330.149   CPU_ReadMem(4 bytes @ 0xE000EDF0)
T1510 000:330.675   CPU_ReadMem(4 bytes @ 0xE000EDF0)
T1510 000:331.136   CPU is running
T1510 000:331.149   CPU_WriteMem(4 bytes @ 0xE000EDF0)
T1510 000:331.614   CPU is running
T1510 000:331.627   CPU_WriteMem(4 bytes @ 0xE000EDFC)
T1510 000:337.262   CPU_ReadMem(4 bytes @ 0xE000EDF0)
T1510 000:340.500   CPU_WriteMem(4 bytes @ 0xE0002000)
T1510 000:341.085   CPU_ReadMem(4 bytes @ 0xE000EDFC)
T1510 000:341.504   CPU_ReadMem(4 bytes @ 0xE0001000)
T1510 000:341.970 - 80.791ms
T1510 000:341.986 JLINK_Halt()
T1510 000:341.995 - 0.012ms returns 0x00
T1510 000:342.029 JLINK_ReadMemU32(0xE000EDF0, 0x1 Items)
T1510 000:342.042   CPU_ReadMem(4 bytes @ 0xE000EDF0)
T1510 000:342.505   Data:  03 00 03 00
T1510 000:342.517   Debug reg: DHCSR
T1510 000:342.528 - 0.503ms returns 1 (0x1)
T1510 000:342.538 JLINK_WriteU32_64(0xE000EDF0, 0xA05F0003)
T1510 000:342.548   Debug reg: DHCSR
T1510 000:342.731   CPU_WriteMem(4 bytes @ 0xE000EDF0)
T1510 000:343.211 - 0.676ms returns 0 (0x00000000)
T1510 000:343.221 JLINK_WriteU32_64(0xE000EDFC, 0x01000000)
T1510 000:343.229   Debug reg: DEMCR
T1510 000:343.245   CPU_WriteMem(4 bytes @ 0xE000EDFC)
T1510 000:343.709 - 0.492ms returns 0 (0x00000000)
T1510 000:352.748 JLINK_GetHWStatus(...)
T1510 000:353.078 - 0.334ms returns 0
T1510 000:359.068 JLINK_GetNumBPUnits(Type = 0xFFFFFF00)
T1510 000:359.089 - 0.024ms returns 0x06
T1510 000:359.098 JLINK_GetNumBPUnits(Type = 0xF0)
T1510 000:359.107 - 0.012ms returns 0x2000
T1510 000:359.115 JLINK_GetNumWPUnits()
T1510 000:359.123 - 0.011ms returns 4
T1510 000:365.456 JLINK_GetSpeed()
T1510 000:365.479 - 0.026ms returns 6000
T1510 000:369.244 JLINK_ReadMemU32(0xE000E004, 0x1 Items)
T1510 000:369.275   CPU_ReadMem(4 bytes @ 0xE000E004)
T1510 000:369.758   Data:  02 00 00 00
T1510 000:369.780 - 0.539ms returns 1 (0x1)
T1510 000:369.790 JLINK_ReadMemU32(0xE000E004, 0x1 Items)
T1510 000:369.803   CPU_ReadMem(4 bytes @ 0xE000E004)
T1510 000:370.260   Data:  02 00 00 00
T1510 000:370.272 - 0.485ms returns 1 (0x1)
T1510 000:370.281 JLINK_WriteMemEx(0xE0001000, 0x0000001C Bytes, Flags = 0x02000004)
T1510 000:370.290   Data:  01 00 00 00 00 00 00 00 00 00 00 00 00 00 00 00 ...
T1510 000:370.306   CPU_WriteMem(28 bytes @ 0xE0001000)
T1510 000:370.885 - 0.608ms returns 0x1C
T1510 000:370.897 JLINK_Halt()
T1510 000:370.905 - 0.011ms returns 0x00
T1510 000:370.914 JLINK_IsHalted()
T1510 000:370.922 - 0.012ms returns TRUE
T1510 000:372.220 JLINK_WriteMem(0x20000000, 0x1B0 Bytes, ...)
T1510 000:372.233   Data:  00 BE 0A E0 0D 78 2D 06 68 40 08 24 40 00 00 D3 ...
T1510 000:372.405   CPU_WriteMem(432 bytes @ 0x20000000)
T1510 000:375.026 - 2.812ms returns 0x1B0
T1510 000:375.057 JLINK_HasError()
T1510 000:375.068 JLINK_WriteReg(R0, 0x08000000)
T1510 000:375.080 - 0.016ms returns 0
T1510 000:375.089 JLINK_WriteReg(R1, 0x00B71B00)
T1510 000:375.097 - 0.012ms returns 0
T1510 000:375.106 JLINK_WriteReg(R2, 0x00000001)
T1510 000:375.114 - 0.012ms returns 0
T1510 000:375.122 JLINK_WriteReg(R3, 0x00000000)
T1510 000:375.166 - 0.066ms returns 0
T1510 000:375.201 JLINK_WriteReg(R4, 0x00000000)
T1510 000:375.219 - 0.025ms returns 0
T1510 000:375.236 JLINK_WriteReg(R5, 0x00000000)
T1510 000:375.251 - 0.024ms returns 0
T1510 000:375.268 JLINK_WriteReg(R6, 0x00000000)
T1510 000:375.284 - 0.024ms returns 0
T1510 000:375.301 JLINK_WriteReg(R7, 0x00000000)
T1510 000:375.319 - 0.021ms returns 0
T1510 000:375.328 JLINK_WriteReg(R8, 0x00000000)
T1510 000:375.339 - 0.015ms returns 0
T1510 000:375.348 JLINK_WriteReg(R9, 0x200001A8)
T1510 000:375.356 - 0.011ms returns 0
T1510 000:375.364 JLINK_WriteReg(R10, 0x00000000)
T1510 000:375.372 - 0.011ms returns 0
T1510 000:375.381 JLINK_WriteReg(R11, 0x00000000)
T1510 000:375.388 - 0.011ms returns 0
T1510 000:375.397 JLINK_WriteReg(R12, 0x00000000)
T1510 000:375.405 - 0.011ms returns 0
T1510 000:375.416 JLINK_WriteReg(R13 (SP), 0x20001000)
T1510 000:375.426 - 0.013ms returns 0
T1510 000:375.435 JLINK_WriteReg(R14, 0x20000001)
T1510 000:375.443 - 0.012ms returns 0
T1510 000:375.451 JLINK_WriteReg(R15 (PC), 0x20000038)
T1510 000:375.460 - 0.012ms returns 0
T1510 000:375.469 JLINK_WriteReg(XPSR, 0x01000000)
T1510 000:375.477 - 0.012ms returns 0
T1510 000:375.485 JLINK_WriteReg(MSP, 0x20001000)
T1510 000:375.493 - 0.011ms returns 0
T1510 000:375.502 JLINK_WriteReg(PSP, 0x20001000)
T1510 000:375.509 - 0.011ms returns 0
T1510 000:375.518 JLINK_WriteReg(CFBP, 0x00000000)
T1510 000:375.526 - 0.011ms returns 0
T1510 000:375.534 JLINK_SetBPEx(Addr = 0x20000000, Type = 0xFFFFFFF2)
T1510 000:375.546   CPU_ReadMem(2 bytes @ 0x20000000)
T1510 000:376.034 - 0.504ms returns 0x00000001
T1510 000:376.044 JLINK_Go()
T1510 000:376.053   CPU_WriteMem(2 bytes @ 0x20000000)
T1510 000:376.510   CPU_ReadMem(4 bytes @ 0xE0001000)
T1510 000:376.960   CPU_WriteMem(4 bytes @ 0xE0002008)
T1510 000:376.972   CPU_WriteMem(4 bytes @ 0xE000200C)
T1510 000:376.984   CPU_WriteMem(4 bytes @ 0xE0002010)
T1510 000:376.995   CPU_WriteMem(4 bytes @ 0xE0002014)
T1510 000:377.007   CPU_WriteMem(4 bytes @ 0xE0002018)
T1510 000:377.018   CPU_WriteMem(4 bytes @ 0xE000201C)
T1510 000:378.477   CPU_WriteMem(4 bytes @ 0xE0001004)
T1510 000:381.701 - 5.663ms
T1510 000:381.713 JLINK_IsHalted()
T1510 000:384.479   CPU_ReadMem(2 bytes @ 0x20000000)
T1510 000:384.960 - 3.251ms returns TRUE
T1510 000:384.971 JLINK_ReadReg(R15 (PC))
T1510 000:384.980 - 0.013ms returns 0x20000000
T1510 000:384.989 JLINK_ClrBPEx(BPHandle = 0x00000001)
T1510 000:384.997 - 0.012ms returns 0x00
T1510 000:385.006 JLINK_ReadReg(R0)
T1510 000:385.014 - 0.011ms returns 0x00000000
T1510 000:385.179 JLINK_HasError()
T1510 000:385.190 JLINK_WriteReg(R0, 0x08000000)
T1510 000:385.199 - 0.013ms returns 0
T1510 000:385.208 JLINK_WriteReg(R1, 0x00B71B00)
T1510 000:385.216 - 0.011ms returns 0
T1510 000:385.224 JLINK_WriteReg(R2, 0x00000001)
T1510 000:385.232 - 0.012ms returns 0
T1510 000:385.241 JLINK_WriteReg(R3, 0x00000000)
T1510 000:385.249 - 0.012ms returns 0
T1510 000:385.257 JLINK_WriteReg(R4, 0x00000000)
T1510 000:385.265 - 0.011ms returns 0
T1510 000:385.274 JLINK_WriteReg(R5, 0x00000000)
T1510 000:385.281 - 0.011ms returns 0
T1510 000:385.290 JLINK_WriteReg(R6, 0x00000000)
T1510 000:385.297 - 0.011ms returns 0
T1510 000:385.306 JLINK_WriteReg(R7, 0x00000000)
T1510 000:385.314 - 0.011ms returns 0
T1510 000:385.322 JLINK_WriteReg(R8, 0x00000000)
T1510 000:385.330 - 0.011ms returns 0
T1510 000:385.338 JLINK_WriteReg(R9, 0x200001A8)
T1510 000:385.346 - 0.011ms returns 0
T1510 000:385.354 JLINK_WriteReg(R10, 0x00000000)
T1510 000:385.362 - 0.011ms returns 0
T1510 000:385.371 JLINK_WriteReg(R11, 0x00000000)
T1510 000:385.379 - 0.011ms returns 0
T1510 000:385.387 JLINK_WriteReg(R12, 0x00000000)
T1510 000:385.395 - 0.011ms returns 0
T1510 000:385.403 JLINK_WriteReg(R13 (SP), 0x20001000)
T1510 000:385.412 - 0.012ms returns 0
T1510 000:385.420 JLINK_WriteReg(R14, 0x20000001)
T1510 000:385.428 - 0.011ms returns 0
T1510 000:385.436 JLINK_WriteReg(R15 (PC), 0x20000086)
T1510 000:385.444 - 0.011ms returns 0
T1510 000:385.453 JLINK_WriteReg(XPSR, 0x01000000)
T1510 000:385.460 - 0.011ms returns 0
T1510 000:385.469 JLINK_WriteReg(MSP, 0x20001000)
T1510 000:385.477 - 0.012ms returns 0
T1510 000:385.485 JLINK_WriteReg(PSP, 0x20001000)
T1510 000:385.493 - 0.011ms returns 0
T1510 000:385.502 JLINK_WriteReg(CFBP, 0x00000000)
T1510 000:385.509 - 0.011ms returns 0
T1510 000:385.518 JLINK_SetBPEx(Addr = 0x20000000, Type = 0xFFFFFFF2)
T1510 000:385.526 - 0.012ms returns 0x00000002
T1510 000:385.535 JLINK_Go()
T1510 000:385.546   CPU_ReadMem(4 bytes @ 0xE0001000)
T1510 000:388.844 - 3.321ms
T1510 000:388.862 JLINK_IsHalted()
T1510 000:389.335 - 0.477ms returns FALSE
T1510 000:389.345 JLINK_HasError()
T1510 000:472.813 JLINK_IsHalted()
T1510 000:475.890   CPU_ReadMem(2 bytes @ 0x20000000)
T1510 000:476.426 - 3.617ms returns TRUE
T1510 000:476.473 JLINK_ReadReg(R15 (PC))
T1510 000:476.485 - 0.015ms returns 0x20000000
T1510 000:476.493 JLINK_ClrBPEx(BPHandle = 0x00000002)
T1510 000:476.502 - 0.012ms returns 0x00
T1510 000:476.510 JLINK_ReadReg(R0)
T1510 000:476.518 - 0.011ms returns 0x00000000
T1510 000:530.306 JLINK_HasError()
T1510 000:530.365 JLINK_WriteReg(R0, 0x00000001)
T1510 000:530.399 - 0.045ms returns 0
T1510 000:530.424 JLINK_WriteReg(R1, 0x00B71B00)
T1510 000:530.449 - 0.036ms returns 0
T1510 000:530.474 JLINK_WriteReg(R2, 0x00000001)
T1510 000:530.497 - 0.034ms returns 0
T1510 000:530.522 JLINK_WriteReg(R3, 0x00000000)
T1510 000:530.545 - 0.035ms returns 0
T1510 000:530.570 JLINK_WriteReg(R4, 0x00000000)
T1510 000:530.593 - 0.034ms returns 0
T1510 000:530.621 JLINK_WriteReg(R5, 0x00000000)
T1510 000:530.645 - 0.036ms returns 0
T1510 000:530.673 JLINK_WriteReg(R6, 0x00000000)
T1510 000:530.698 - 0.035ms returns 0
T1510 000:530.722 JLINK_WriteReg(R7, 0x00000000)
T1510 000:530.746 - 0.035ms returns 0
T1510 000:530.771 JLINK_WriteReg(R8, 0x00000000)
T1510 000:530.794 - 0.035ms returns 0
T1510 000:530.819 JLINK_WriteReg(R9, 0x200001A8)
T1510 000:530.843 - 0.035ms returns 0
T1510 000:530.865 JLINK_WriteReg(R10, 0x00000000)
T1510 000:530.886 - 0.031ms returns 0
T1510 000:530.908 JLINK_WriteReg(R11, 0x00000000)
T1510 000:530.929 - 0.030ms returns 0
T1510 000:530.951 JLINK_WriteReg(R12, 0x00000000)
T1510 000:530.972 - 0.031ms returns 0
T1510 000:530.993 JLINK_WriteReg(R13 (SP), 0x20001000)
T1510 000:531.016 - 0.032ms returns 0
T1510 000:531.037 JLINK_WriteReg(R14, 0x20000001)
T1510 000:531.058 - 0.031ms returns 0
T1510 000:531.081 JLINK_WriteReg(R15 (PC), 0x20000074)
T1510 000:531.102 - 0.031ms returns 0
T1510 000:531.124 JLINK_WriteReg(XPSR, 0x01000000)
T1510 000:531.145 - 0.031ms returns 0
T1510 000:531.167 JLINK_WriteReg(MSP, 0x20001000)
T1510 000:531.188 - 0.031ms returns 0
T1510 000:531.209 JLINK_WriteReg(PSP, 0x20001000)
T1510 000:531.230 - 0.030ms returns 0
T1510 000:531.252 JLINK_WriteReg(CFBP, 0x00000000)
T1510 000:531.272 - 0.030ms returns 0
T1510 000:531.295 JLINK_SetBPEx(Addr = 0x20000000, Type = 0xFFFFFFF2)
T1510 000:531.318 - 0.033ms returns 0x00000003
T1510 000:531.340 JLINK_Go()
T1510 000:531.377   CPU_ReadMem(4 bytes @ 0xE0001000)
T1510 000:535.126 - 3.814ms
T1510 000:535.167 JLINK_IsHalted()
T1510 000:538.133   CPU_ReadMem(2 bytes @ 0x20000000)
T1510 000:538.636 - 3.477ms returns TRUE
T1510 000:538.655 JLINK_ReadReg(R15 (PC))
T1510 000:538.671 - 0.022ms returns 0x20000000
T1510 000:538.686 JLINK_ClrBPEx(BPHandle = 0x00000003)
T1510 000:538.700 - 0.021ms returns 0x00
T1510 000:538.715 JLINK_ReadReg(R0)
T1510 000:538.729 - 0.021ms returns 0x00000000
T1510 000:542.917 JLINK_WriteMem(0x20000000, 0x1B0 Bytes, ...)
T1510 000:542.930   Data:  00 BE 0A E0 0D 78 2D 06 68 40 08 24 40 00 00 D3 ...
T1510 000:542.949   CPU_WriteMem(432 bytes @ 0x20000000)
T1510 000:545.588 - 2.684ms returns 0x1B0
T1510 000:545.629 JLINK_HasError()
T1510 000:545.639 JLINK_WriteReg(R0, 0x08000000)
T1510 000:545.649 - 0.014ms returns 0
T1510 000:545.658 JLINK_WriteReg(R1, 0x00B71B00)
T1510 000:545.667 - 0.012ms returns 0
T1510 000:545.675 JLINK_WriteReg(R2, 0x00000002)
T1510 000:545.683 - 0.012ms returns 0
T1510 000:545.692 JLINK_WriteReg(R3, 0x00000000)
T1510 000:545.700 - 0.011ms returns 0
T1510 000:545.708 JLINK_WriteReg(R4, 0x00000000)
T1510 000:545.716 - 0.012ms returns 0
T1510 000:545.725 JLINK_WriteReg(R5, 0x00000000)
T1510 000:545.733 - 0.012ms returns 0
T1510 000:545.742 JLINK_WriteReg(R6, 0x00000000)
T1510 000:545.750 - 0.012ms returns 0
T1510 000:545.758 JLINK_WriteReg(R7, 0x00000000)
T1510 000:545.766 - 0.012ms returns 0
T1510 000:545.775 JLINK_WriteReg(R8, 0x00000000)
T1510 000:545.783 - 0.012ms returns 0
T1510 000:545.792 JLINK_WriteReg(R9, 0x200001A8)
T1510 000:545.800 - 0.012ms returns 0
T1510 000:545.809 JLINK_WriteReg(R10, 0x00000000)
T1510 000:545.817 - 0.012ms returns 0
T1510 000:545.825 JLINK_WriteReg(R11, 0x00000000)
T1510 000:545.834 - 0.012ms returns 0
T1510 000:545.846 JLINK_WriteReg(R12, 0x00000000)
T1510 000:545.856 - 0.014ms returns 0
T1510 000:545.866 JLINK_WriteReg(R13 (SP), 0x20001000)
T1510 000:545.874 - 0.012ms returns 0
T1510 000:545.883 JLINK_WriteReg(R14, 0x20000001)
T1510 000:545.891 - 0.011ms returns 0
T1510 000:545.899 JLINK_WriteReg(R15 (PC), 0x20000038)
T1510 000:545.907 - 0.011ms returns 0
T1510 000:545.915 JLINK_WriteReg(XPSR, 0x01000000)
T1510 000:545.923 - 0.011ms returns 0
T1510 000:545.931 JLINK_WriteReg(MSP, 0x20001000)
T1510 000:545.939 - 0.012ms returns 0
T1510 000:545.948 JLINK_WriteReg(PSP, 0x20001000)
T1510 000:545.956 - 0.011ms returns 0
T1510 000:545.964 JLINK_WriteReg(CFBP, 0x00000000)
T1510 000:545.972 - 0.011ms returns 0
T1510 000:545.980 JLINK_SetBPEx(Addr = 0x20000000, Type = 0xFFFFFFF2)
T1510 000:545.991   CPU_ReadMem(2 bytes @ 0x20000000)
T1510 000:546.469 - 0.493ms returns 0x00000004
T1510 000:546.479 JLINK_Go()
T1510 000:546.488   CPU_WriteMem(2 bytes @ 0x20000000)
T1510 000:546.963   CPU_ReadMem(4 bytes @ 0xE0001000)
T1510 000:550.231 - 3.762ms
T1510 000:550.249 JLINK_IsHalted()
T1510 000:553.090   CPU_ReadMem(2 bytes @ 0x20000000)
T1510 000:553.533 - 3.294ms returns TRUE
T1510 000:553.551 JLINK_ReadReg(R15 (PC))
T1510 000:553.562 - 0.014ms returns 0x20000000
T1510 000:553.573 JLINK_ClrBPEx(BPHandle = 0x00000004)
T1510 000:553.581 - 0.012ms returns 0x00
T1510 000:553.591 JLINK_ReadReg(R0)
T1510 000:553.599 - 0.012ms returns 0x00000000
T1510 000:553.783 JLINK_WriteMem(0x200001B0, 0x250 Bytes, ...)
T1510 000:553.794   Data:  F8 19 00 20 69 01 00 08 B9 06 00 08 19 06 00 08 ...
T1510 000:553.812   CPU_WriteMem(592 bytes @ 0x200001B0)
T1510 000:557.232 - 3.458ms returns 0x250
T1510 000:557.248 JLINK_WriteMem(0x20000400, 0x1B0 Bytes, ...)
T1510 000:557.257   Data:  28 B1 4F F4 80 41 65 48 01 F0 36 F9 04 E0 4F F4 ...
T1510 000:557.274   CPU_WriteMem(432 bytes @ 0x20000400)
T1510 000:559.872 - 2.633ms returns 0x1B0
T1510 000:559.888 JLINK_HasError()
T1510 000:559.897 JLINK_WriteReg(R0, 0x08000000)
T1510 000:559.908 - 0.014ms returns 0
T1510 000:559.916 JLINK_WriteReg(R1, 0x00000400)
T1510 000:559.925 - 0.012ms returns 0
T1510 000:559.933 JLINK_WriteReg(R2, 0x200001B0)
T1510 000:559.941 - 0.011ms returns 0
T1510 000:559.949 JLINK_WriteReg(R3, 0x00000000)
T1510 000:559.957 - 0.011ms returns 0
T1510 000:559.966 JLINK_WriteReg(R4, 0x00000000)
T1510 000:559.973 - 0.011ms returns 0
T1510 000:559.982 JLINK_WriteReg(R5, 0x00000000)
T1510 000:559.990 - 0.011ms returns 0
T1510 000:559.998 JLINK_WriteReg(R6, 0x00000000)
T1510 000:560.006 - 0.011ms returns 0
T1510 000:560.014 JLINK_WriteReg(R7, 0x00000000)
T1510 000:560.022 - 0.011ms returns 0
T1510 000:560.031 JLINK_WriteReg(R8, 0x00000000)
T1510 000:560.039 - 0.012ms returns 0
T1510 000:560.047 JLINK_WriteReg(R9, 0x200001A8)
T1510 000:560.055 - 0.012ms returns 0
T1510 000:560.064 JLINK_WriteReg(R10, 0x00000000)
T1510 000:560.072 - 0.011ms returns 0
T1510 000:560.080 JLINK_WriteReg(R11, 0x00000000)
T1510 000:560.088 - 0.011ms returns 0
T1510 000:560.096 JLINK_WriteReg(R12, 0x00000000)
T1510 000:560.104 - 0.011ms returns 0
T1510 000:560.112 JLINK_WriteReg(R13 (SP), 0x20001000)
T1510 000:560.121 - 0.012ms returns 0
T1510 000:560.129 JLINK_WriteReg(R14, 0x20000001)
T1510 000:560.137 - 0.011ms returns 0
T1510 000:560.145 JLINK_WriteReg(R15 (PC), 0x20000102)
T1510 000:560.153 - 0.011ms returns 0
T1510 000:560.162 JLINK_WriteReg(XPSR, 0x01000000)
T1510 000:560.170 - 0.011ms returns 0
T1510 000:560.178 JLINK_WriteReg(MSP, 0x20001000)
T1510 000:560.187 - 0.012ms returns 0
T1510 000:560.195 JLINK_WriteReg(PSP, 0x20001000)
T1510 000:560.203 - 0.011ms returns 0
T1510 000:560.211 JLINK_WriteReg(CFBP, 0x00000000)
T1510 000:560.219 - 0.011ms returns 0
T1510 000:560.228 JLINK_SetBPEx(Addr = 0x20000000, Type = 0xFFFFFFF2)
T1510 000:560.236 - 0.012ms returns 0x00000005
T1510 000:560.245 JLINK_Go()
T1510 000:560.256   CPU_ReadMem(4 bytes @ 0xE0001000)
T1510 000:563.546 - 3.314ms
T1510 000:563.566 JLINK_IsHalted()
T1510 000:564.055 - 0.501ms returns FALSE
T1510 000:564.073 JLINK_HasError()
T1510 000:573.477 JLINK_IsHalted()
T1510 000:573.982 - 0.513ms returns FALSE
T1510 000:573.997 JLINK_HasError()
T1510 000:575.476 JLINK_IsHalted()
T1510 000:575.967 - 0.497ms returns FALSE
T1510 000:575.979 JLINK_HasError()
T1510 000:577.467 JLINK_IsHalted()
T1510 000:580.357   CPU_ReadMem(2 bytes @ 0x20000000)
T1510 000:580.836 - 3.374ms returns TRUE
T1510 000:580.849 JLINK_ReadReg(R15 (PC))
T1510 000:580.858 - 0.013ms returns 0x20000000
T1510 000:580.881 JLINK_ClrBPEx(BPHandle = 0x00000005)
T1510 000:580.889 - 0.012ms returns 0x00
T1510 000:580.898 JLINK_ReadReg(R0)
T1510 000:580.906 - 0.011ms returns 0x00000000
T1510 000:581.144 JLINK_WriteMem(0x200001B0, 0x250 Bytes, ...)
T1510 000:581.156   Data:  0A 48 01 F0 61 F8 03 E0 20 21 08 48 01 F0 5A F8 ...
T1510 000:581.172   CPU_WriteMem(592 bytes @ 0x200001B0)
T1510 000:584.542 - 3.409ms returns 0x250
T1510 000:584.559 JLINK_WriteMem(0x20000400, 0x1B0 Bytes, ...)
T1510 000:584.568   Data:  10 21 0A 48 00 F0 56 FF 49 F6 F0 13 03 22 10 21 ...
T1510 000:584.584   CPU_WriteMem(432 bytes @ 0x20000400)
T1510 000:587.231 - 2.678ms returns 0x1B0
T1510 000:587.243 JLINK_HasError()
T1510 000:587.253 JLINK_WriteReg(R0, 0x08000400)
T1510 000:587.264 - 0.015ms returns 0
T1510 000:587.273 JLINK_WriteReg(R1, 0x00000400)
T1510 000:587.281 - 0.012ms returns 0
T1510 000:587.289 JLINK_WriteReg(R2, 0x200001B0)
T1510 000:587.297 - 0.011ms returns 0
T1510 000:587.306 JLINK_WriteReg(R3, 0x00000000)
T1510 000:587.314 - 0.012ms returns 0
T1510 000:587.322 JLINK_WriteReg(R4, 0x00000000)
T1510 000:587.330 - 0.011ms returns 0
T1510 000:587.339 JLINK_WriteReg(R5, 0x00000000)
T1510 000:587.346 - 0.011ms returns 0
T1510 000:587.355 JLINK_WriteReg(R6, 0x00000000)
T1510 000:587.363 - 0.011ms returns 0
T1510 000:587.371 JLINK_WriteReg(R7, 0x00000000)
T1510 000:587.379 - 0.012ms returns 0
T1510 000:587.388 JLINK_WriteReg(R8, 0x00000000)
T1510 000:587.396 - 0.011ms returns 0
T1510 000:587.404 JLINK_WriteReg(R9, 0x200001A8)
T1510 000:587.412 - 0.012ms returns 0
T1510 000:587.421 JLINK_WriteReg(R10, 0x00000000)
T1510 000:587.429 - 0.013ms returns 0
T1510 000:587.438 JLINK_WriteReg(R11, 0x00000000)
T1510 000:587.446 - 0.012ms returns 0
T1510 000:587.454 JLINK_WriteReg(R12, 0x00000000)
T1510 000:587.462 - 0.011ms returns 0
T1510 000:587.471 JLINK_WriteReg(R13 (SP), 0x20001000)
T1510 000:587.479 - 0.012ms returns 0
T1510 000:587.487 JLINK_WriteReg(R14, 0x20000001)
T1510 000:587.495 - 0.012ms returns 0
T1510 000:587.504 JLINK_WriteReg(R15 (PC), 0x20000102)
T1510 000:587.512 - 0.012ms returns 0
T1510 000:587.520 JLINK_WriteReg(XPSR, 0x01000000)
T1510 000:587.528 - 0.011ms returns 0
T1510 000:587.536 JLINK_WriteReg(MSP, 0x20001000)
T1510 000:587.544 - 0.011ms returns 0
T1510 000:587.553 JLINK_WriteReg(PSP, 0x20001000)
T1510 000:587.561 - 0.011ms returns 0
T1510 000:587.569 JLINK_WriteReg(CFBP, 0x00000000)
T1510 000:587.577 - 0.011ms returns 0
T1510 000:587.586 JLINK_SetBPEx(Addr = 0x20000000, Type = 0xFFFFFFF2)
T1510 000:587.594 - 0.012ms returns 0x00000006
T1510 000:587.603 JLINK_Go()
T1510 000:587.616   CPU_ReadMem(4 bytes @ 0xE0001000)
T1510 000:590.826 - 3.233ms
T1510 000:590.842 JLINK_IsHalted()
T1510 000:591.297 - 0.460ms returns FALSE
T1510 000:591.307 JLINK_HasError()
T1510 000:593.413 JLINK_IsHalted()
T1510 000:593.880 - 0.480ms returns FALSE
T1510 000:593.901 JLINK_HasError()
T1510 000:595.404 JLINK_IsHalted()
T1510 000:595.835 - 0.436ms returns FALSE
T1510 000:595.846 JLINK_HasError()
T1510 000:597.401 JLINK_IsHalted()
T1510 000:597.884 - 0.488ms returns FALSE
T1510 000:597.894 JLINK_HasError()
T1510 000:604.373 JLINK_IsHalted()
T1510 000:607.235   CPU_ReadMem(2 bytes @ 0x20000000)
T1510 000:607.658 - 3.291ms returns TRUE
T1510 000:607.673 JLINK_ReadReg(R15 (PC))
T1510 000:607.683 - 0.014ms returns 0x20000000
T1510 000:607.693 JLINK_ClrBPEx(BPHandle = 0x00000006)
T1510 000:607.701 - 0.012ms returns 0x00
T1510 000:607.710 JLINK_ReadReg(R0)
T1510 000:607.721 - 0.016ms returns 0x00000000
T1510 000:607.993 JLINK_WriteMem(0x200001B0, 0x250 Bytes, ...)
T1510 000:608.006   Data:  00 21 4F F0 00 60 01 F0 49 F8 10 BD 88 ED 00 E0 ...
T1510 000:608.025   CPU_WriteMem(592 bytes @ 0x200001B0)
T1510 000:611.407 - 3.422ms returns 0x250
T1510 000:611.421 JLINK_WriteMem(0x20000400, 0x1B0 Bytes, ...)
T1510 000:611.430   Data:  02 21 22 48 00 F0 35 F9 01 22 11 02 1F 48 00 F0 ...
T1510 000:611.444   CPU_WriteMem(432 bytes @ 0x20000400)
T1510 000:614.136 - 2.720ms returns 0x1B0
T1510 000:614.149 JLINK_HasError()
T1510 000:614.158 JLINK_WriteReg(R0, 0x08000800)
T1510 000:614.168 - 0.013ms returns 0
T1510 000:614.176 JLINK_WriteReg(R1, 0x00000400)
T1510 000:614.184 - 0.012ms returns 0
T1510 000:614.193 JLINK_WriteReg(R2, 0x200001B0)
T1510 000:614.201 - 0.011ms returns 0
T1510 000:614.209 JLINK_WriteReg(R3, 0x00000000)
T1510 000:614.217 - 0.011ms returns 0
T1510 000:614.225 JLINK_WriteReg(R4, 0x00000000)
T1510 000:614.233 - 0.011ms returns 0
T1510 000:614.242 JLINK_WriteReg(R5, 0x00000000)
T1510 000:614.250 - 0.011ms returns 0
T1510 000:614.259 JLINK_WriteReg(R6, 0x00000000)
T1510 000:614.266 - 0.011ms returns 0
T1510 000:614.275 JLINK_WriteReg(R7, 0x00000000)
T1510 000:614.283 - 0.011ms returns 0
T1510 000:614.291 JLINK_WriteReg(R8, 0x00000000)
T1510 000:614.299 - 0.011ms returns 0
T1510 000:614.307 JLINK_WriteReg(R9, 0x200001A8)
T1510 000:614.316 - 0.012ms returns 0
T1510 000:614.324 JLINK_WriteReg(R10, 0x00000000)
T1510 000:614.332 - 0.012ms returns 0
T1510 000:614.341 JLINK_WriteReg(R11, 0x00000000)
T1510 000:614.349 - 0.011ms returns 0
T1510 000:614.358 JLINK_WriteReg(R12, 0x00000000)
T1510 000:614.366 - 0.011ms returns 0
T1510 000:614.374 JLINK_WriteReg(R13 (SP), 0x20001000)
T1510 000:614.382 - 0.012ms returns 0
T1510 000:614.391 JLINK_WriteReg(R14, 0x20000001)
T1510 000:614.399 - 0.011ms returns 0
T1510 000:614.407 JLINK_WriteReg(R15 (PC), 0x20000102)
T1510 000:614.415 - 0.012ms returns 0
T1510 000:614.424 JLINK_WriteReg(XPSR, 0x01000000)
T1510 000:614.432 - 0.011ms returns 0
T1510 000:614.440 JLINK_WriteReg(MSP, 0x20001000)
T1510 000:614.448 - 0.011ms returns 0
T1510 000:614.456 JLINK_WriteReg(PSP, 0x20001000)
T1510 000:614.464 - 0.011ms returns 0
T1510 000:614.472 JLINK_WriteReg(CFBP, 0x00000000)
T1510 000:614.480 - 0.011ms returns 0
T1510 000:614.489 JLINK_SetBPEx(Addr = 0x20000000, Type = 0xFFFFFFF2)
T1510 000:614.498 - 0.012ms returns 0x00000007
T1510 000:614.506 JLINK_Go()
T1510 000:614.518   CPU_ReadMem(4 bytes @ 0xE0001000)
T1510 000:617.885 - 3.390ms
T1510 000:617.903 JLINK_IsHalted()
T1510 000:618.337 - 0.448ms returns FALSE
T1510 000:618.358 JLINK_HasError()
T1510 000:620.319 JLINK_IsHalted()
T1510 000:620.840 - 0.526ms returns FALSE
T1510 000:620.851 JLINK_HasError()
T1510 000:624.306 JLINK_IsHalted()
T1510 000:624.739 - 0.437ms returns FALSE
T1510 000:624.749 JLINK_HasError()
T1510 000:626.299 JLINK_IsHalted()
T1510 000:626.840 - 0.546ms returns FALSE
T1510 000:626.850 JLINK_HasError()
T1510 000:628.294 JLINK_IsHalted()
T1510 000:628.761 - 0.477ms returns FALSE
T1510 000:628.777 JLINK_HasError()
T1510 000:630.294 JLINK_IsHalted()
T1510 000:633.126   CPU_ReadMem(2 bytes @ 0x20000000)
T1510 000:633.613 - 3.328ms returns TRUE
T1510 000:633.626 JLINK_ReadReg(R15 (PC))
T1510 000:633.636 - 0.014ms returns 0x20000000
T1510 000:633.676 JLINK_ClrBPEx(BPHandle = 0x00000007)
T1510 000:633.685 - 0.013ms returns 0x00
T1510 000:633.693 JLINK_ReadReg(R0)
T1510 000:633.702 - 0.012ms returns 0x00000000
T1510 000:633.937 JLINK_WriteMem(0x200001B0, 0x250 Bytes, ...)
T1510 000:633.949   Data:  43 6B 01 EB 81 07 1F 26 BE 40 B3 43 01 EB 81 06 ...
T1510 000:633.966   CPU_WriteMem(592 bytes @ 0x200001B0)
T1510 000:637.336 - 3.404ms returns 0x250
T1510 000:637.347 JLINK_WriteMem(0x20000400, 0x1B0 Bytes, ...)
T1510 000:637.356   Data:  00 F0 38 FE 02 21 19 48 00 F0 4A F9 68 46 00 F0 ...
T1510 000:637.369   CPU_WriteMem(432 bytes @ 0x20000400)
T1510 000:640.048 - 2.706ms returns 0x1B0
T1510 000:640.060 JLINK_HasError()
T1510 000:640.122 JLINK_WriteReg(R0, 0x08000C00)
T1510 000:640.135 - 0.017ms returns 0
T1510 000:640.145 JLINK_WriteReg(R1, 0x00000400)
T1510 000:640.156 - 0.014ms returns 0
T1510 000:640.167 JLINK_WriteReg(R2, 0x200001B0)
T1510 000:640.177 - 0.014ms returns 0
T1510 000:640.188 JLINK_WriteReg(R3, 0x00000000)
T1510 000:640.198 - 0.014ms returns 0
T1510 000:640.208 JLINK_WriteReg(R4, 0x00000000)
T1510 000:640.218 - 0.014ms returns 0
T1510 000:640.228 JLINK_WriteReg(R5, 0x00000000)
T1510 000:640.238 - 0.014ms returns 0
T1510 000:640.250 JLINK_WriteReg(R6, 0x00000000)
T1510 000:640.260 - 0.015ms returns 0
T1510 000:640.270 JLINK_WriteReg(R7, 0x00000000)
T1510 000:640.280 - 0.015ms returns 0
T1510 000:640.291 JLINK_WriteReg(R8, 0x00000000)
T1510 000:640.301 - 0.014ms returns 0
T1510 000:640.311 JLINK_WriteReg(R9, 0x200001A8)
T1510 000:640.321 - 0.015ms returns 0
T1510 000:640.332 JLINK_WriteReg(R10, 0x00000000)
T1510 000:640.342 - 0.015ms returns 0
T1510 000:640.353 JLINK_WriteReg(R11, 0x00000000)
T1510 000:640.364 - 0.015ms returns 0
T1510 000:640.375 JLINK_WriteReg(R12, 0x00000000)
T1510 000:640.385 - 0.015ms returns 0
T1510 000:640.396 JLINK_WriteReg(R13 (SP), 0x20001000)
T1510 000:640.406 - 0.016ms returns 0
T1510 000:640.417 JLINK_WriteReg(R14, 0x20000001)
T1510 000:640.428 - 0.015ms returns 0
T1510 000:640.439 JLINK_WriteReg(R15 (PC), 0x20000102)
T1510 000:640.449 - 0.015ms returns 0
T1510 000:640.460 JLINK_WriteReg(XPSR, 0x01000000)
T1510 000:640.471 - 0.015ms returns 0
T1510 000:640.482 JLINK_WriteReg(MSP, 0x20001000)
T1510 000:640.492 - 0.015ms returns 0
T1510 000:640.503 JLINK_WriteReg(PSP, 0x20001000)
T1510 000:640.514 - 0.015ms returns 0
T1510 000:640.525 JLINK_WriteReg(CFBP, 0x00000000)
T1510 000:640.535 - 0.015ms returns 0
T1510 000:640.546 JLINK_SetBPEx(Addr = 0x20000000, Type = 0xFFFFFFF2)
T1510 000:640.558 - 0.016ms returns 0x00000008
T1510 000:640.568 JLINK_Go()
T1510 000:640.583   CPU_ReadMem(4 bytes @ 0xE0001000)
T1510 000:643.912 - 3.355ms
T1510 000:643.933 JLINK_IsHalted()
T1510 000:644.425 - 0.498ms returns FALSE
T1510 000:644.440 JLINK_HasError()
T1510 000:646.235 JLINK_IsHalted()
T1510 000:646.720 - 0.495ms returns FALSE
T1510 000:646.738 JLINK_HasError()
T1510 000:648.228 JLINK_IsHalted()
T1510 000:648.717 - 0.495ms returns FALSE
T1510 000:648.729 JLINK_HasError()
T1510 000:653.212 JLINK_IsHalted()
T1510 000:653.696 - 0.493ms returns FALSE
T1510 000:653.713 JLINK_HasError()
T1510 000:655.203 JLINK_IsHalted()
T1510 000:655.676 - 0.479ms returns FALSE
T1510 000:655.688 JLINK_HasError()
T1510 000:660.190 JLINK_IsHalted()
T1510 000:663.004   CPU_ReadMem(2 bytes @ 0x20000000)
T1510 000:663.488 - 3.303ms returns TRUE
T1510 000:663.500 JLINK_ReadReg(R15 (PC))
T1510 000:663.510 - 0.014ms returns 0x20000000
T1510 000:663.519 JLINK_ClrBPEx(BPHandle = 0x00000008)
T1510 000:663.527 - 0.012ms returns 0x00
T1510 000:663.536 JLINK_ReadReg(R0)
T1510 000:663.544 - 0.012ms returns 0x00000000
T1510 000:663.780 JLINK_WriteMem(0x200001B0, 0x250 Bytes, ...)
T1510 000:663.792   Data:  21 46 28 46 00 F0 D0 F9 08 B9 00 BF FE E7 04 EB ...
T1510 000:663.808   CPU_WriteMem(592 bytes @ 0x200001B0)
T1510 000:667.232 - 3.458ms returns 0x250
T1510 000:667.245 JLINK_WriteMem(0x20000400, 0x1B0 Bytes, ...)
T1510 000:667.253   Data:  05 EB 85 00 81 00 04 F1 08 00 40 58 20 F0 10 01 ...
T1510 000:667.267   CPU_WriteMem(432 bytes @ 0x20000400)
T1510 000:669.883 - 2.645ms returns 0x1B0
T1510 000:669.896 JLINK_HasError()
T1510 000:669.906 JLINK_WriteReg(R0, 0x08001000)
T1510 000:669.915 - 0.013ms returns 0
T1510 000:669.924 JLINK_WriteReg(R1, 0x00000400)
T1510 000:669.933 - 0.012ms returns 0
T1510 000:669.941 JLINK_WriteReg(R2, 0x200001B0)
T1510 000:669.949 - 0.012ms returns 0
T1510 000:669.958 JLINK_WriteReg(R3, 0x00000000)
T1510 000:669.966 - 0.012ms returns 0
T1510 000:669.974 JLINK_WriteReg(R4, 0x00000000)
T1510 000:669.983 - 0.012ms returns 0
T1510 000:669.991 JLINK_WriteReg(R5, 0x00000000)
T1510 000:669.999 - 0.012ms returns 0
T1510 000:670.011 JLINK_WriteReg(R6, 0x00000000)
T1510 000:670.020 - 0.013ms returns 0
T1510 000:670.029 JLINK_WriteReg(R7, 0x00000000)
T1510 000:670.037 - 0.012ms returns 0
T1510 000:670.045 JLINK_WriteReg(R8, 0x00000000)
T1510 000:670.053 - 0.012ms returns 0
T1510 000:670.062 JLINK_WriteReg(R9, 0x200001A8)
T1510 000:670.070 - 0.012ms returns 0
T1510 000:670.078 JLINK_WriteReg(R10, 0x00000000)
T1510 000:670.086 - 0.012ms returns 0
T1510 000:670.095 JLINK_WriteReg(R11, 0x00000000)
T1510 000:670.103 - 0.012ms returns 0
T1510 000:670.111 JLINK_WriteReg(R12, 0x00000000)
T1510 000:670.120 - 0.012ms returns 0
T1510 000:670.128 JLINK_WriteReg(R13 (SP), 0x20001000)
T1510 000:670.137 - 0.012ms returns 0
T1510 000:670.145 JLINK_WriteReg(R14, 0x20000001)
T1510 000:670.154 - 0.013ms returns 0
T1510 000:670.163 JLINK_WriteReg(R15 (PC), 0x20000102)
T1510 000:670.171 - 0.012ms returns 0
T1510 000:670.180 JLINK_WriteReg(XPSR, 0x01000000)
T1510 000:670.188 - 0.012ms returns 0
T1510 000:670.197 JLINK_WriteReg(MSP, 0x20001000)
T1510 000:670.205 - 0.012ms returns 0
T1510 000:670.213 JLINK_WriteReg(PSP, 0x20001000)
T1510 000:670.222 - 0.012ms returns 0
T1510 000:670.230 JLINK_WriteReg(CFBP, 0x00000000)
T1510 000:670.238 - 0.012ms returns 0
T1510 000:670.247 JLINK_SetBPEx(Addr = 0x20000000, Type = 0xFFFFFFF2)
T1510 000:670.256 - 0.012ms returns 0x00000009
T1510 000:670.264 JLINK_Go()
T1510 000:670.277   CPU_ReadMem(4 bytes @ 0xE0001000)
T1510 000:673.606 - 3.349ms
T1510 000:673.620 JLINK_IsHalted()
T1510 000:674.070 - 0.456ms returns FALSE
T1510 000:674.084 JLINK_HasError()
T1510 000:676.134 JLINK_IsHalted()
T1510 000:676.615 - 0.487ms returns FALSE
T1510 000:676.628 JLINK_HasError()
T1510 000:682.116 JLINK_IsHalted()
T1510 000:682.606 - 0.494ms returns FALSE
T1510 000:682.616 JLINK_HasError()
T1510 000:684.106 JLINK_IsHalted()
T1510 000:684.585 - 0.484ms returns FALSE
T1510 000:684.595 JLINK_HasError()
T1510 000:686.101 JLINK_IsHalted()
T1510 000:689.003   CPU_ReadMem(2 bytes @ 0x20000000)
T1510 000:689.467 - 3.370ms returns TRUE
T1510 000:689.477 JLINK_ReadReg(R15 (PC))
T1510 000:689.486 - 0.013ms returns 0x20000000
T1510 000:689.495 JLINK_ClrBPEx(BPHandle = 0x00000009)
T1510 000:689.503 - 0.012ms returns 0x00
T1510 000:689.512 JLINK_ReadReg(R0)
T1510 000:689.520 - 0.012ms returns 0x00000000
T1510 000:689.765 JLINK_WriteMem(0x200001B0, 0x250 Bytes, ...)
T1510 000:689.778   Data:  70 BD 70 B5 05 46 0C 46 21 46 28 46 FF F7 CC FF ...
T1510 000:689.794   CPU_WriteMem(592 bytes @ 0x200001B0)
T1510 000:693.184 - 3.432ms returns 0x250
T1510 000:693.206 JLINK_WriteMem(0x20000400, 0x1B0 Bytes, ...)
T1510 000:693.217   Data:  F1 61 01 E0 01 4E 71 60 F0 BD 00 00 00 00 01 40 ...
T1510 000:693.237   CPU_WriteMem(432 bytes @ 0x20000400)
T1510 000:695.907 - 2.715ms returns 0x1B0
T1510 000:695.930 JLINK_HasError()
T1510 000:695.944 JLINK_WriteReg(R0, 0x08001400)
T1510 000:695.957 - 0.018ms returns 0
T1510 000:695.969 JLINK_WriteReg(R1, 0x00000400)
T1510 000:695.980 - 0.016ms returns 0
T1510 000:695.991 JLINK_WriteReg(R2, 0x200001B0)
T1510 000:696.002 - 0.016ms returns 0
T1510 000:696.013 JLINK_WriteReg(R3, 0x00000000)
T1510 000:696.024 - 0.016ms returns 0
T1510 000:696.035 JLINK_WriteReg(R4, 0x00000000)
T1510 000:696.045 - 0.015ms returns 0
T1510 000:696.057 JLINK_WriteReg(R5, 0x00000000)
T1510 000:696.069 - 0.017ms returns 0
T1510 000:696.080 JLINK_WriteReg(R6, 0x00000000)
T1510 000:696.091 - 0.015ms returns 0
T1510 000:696.102 JLINK_WriteReg(R7, 0x00000000)
T1510 000:696.113 - 0.016ms returns 0
T1510 000:696.124 JLINK_WriteReg(R8, 0x00000000)
T1510 000:696.135 - 0.016ms returns 0
T1510 000:696.146 JLINK_WriteReg(R9, 0x200001A8)
T1510 000:696.157 - 0.015ms returns 0
T1510 000:696.168 JLINK_WriteReg(R10, 0x00000000)
T1510 000:696.179 - 0.016ms returns 0
T1510 000:696.190 JLINK_WriteReg(R11, 0x00000000)
T1510 000:696.201 - 0.015ms returns 0
T1510 000:696.212 JLINK_WriteReg(R12, 0x00000000)
T1510 000:696.223 - 0.015ms returns 0
T1510 000:696.234 JLINK_WriteReg(R13 (SP), 0x20001000)
T1510 000:696.248 - 0.022ms returns 0
T1510 000:696.262 JLINK_WriteReg(R14, 0x20000001)
T1510 000:696.273 - 0.016ms returns 0
T1510 000:696.284 JLINK_WriteReg(R15 (PC), 0x20000102)
T1510 000:696.295 - 0.018ms returns 0
T1510 000:696.308 JLINK_WriteReg(XPSR, 0x01000000)
T1510 000:696.319 - 0.015ms returns 0
T1510 000:696.330 JLINK_WriteReg(MSP, 0x20001000)
T1510 000:696.340 - 0.015ms returns 0
T1510 000:696.351 JLINK_WriteReg(PSP, 0x20001000)
T1510 000:696.362 - 0.015ms returns 0
T1510 000:696.373 JLINK_WriteReg(CFBP, 0x00000000)
T1510 000:696.383 - 0.015ms returns 0
T1510 000:696.394 JLINK_SetBPEx(Addr = 0x20000000, Type = 0xFFFFFFF2)
T1510 000:696.405 - 0.016ms returns 0x0000000A
T1510 000:696.416 JLINK_Go()
T1510 000:696.432   CPU_ReadMem(4 bytes @ 0xE0001000)
T1510 000:699.712 - 3.302ms
T1510 000:699.725 JLINK_IsHalted()
T1510 000:700.197 - 0.478ms returns FALSE
T1510 000:700.212 JLINK_HasError()
T1510 000:702.047 JLINK_IsHalted()
T1510 000:702.536 - 0.495ms returns FALSE
T1510 000:702.551 JLINK_HasError()
T1510 000:706.033 JLINK_IsHalted()
T1510 000:706.460 - 0.432ms returns FALSE
T1510 000:706.472 JLINK_HasError()
T1510 000:708.027 JLINK_IsHalted()
T1510 000:708.467 - 0.466ms returns FALSE
T1510 000:708.510 JLINK_HasError()
T1510 000:710.020 JLINK_IsHalted()
T1510 000:710.487 - 0.472ms returns FALSE
T1510 000:710.498 JLINK_HasError()
T1510 000:719.990 JLINK_IsHalted()
T1510 000:722.847   CPU_ReadMem(2 bytes @ 0x20000000)
T1510 000:723.283 - 3.297ms returns TRUE
T1510 000:723.294 JLINK_ReadReg(R15 (PC))
T1510 000:723.304 - 0.013ms returns 0x20000000
T1510 000:723.312 JLINK_ClrBPEx(BPHandle = 0x0000000A)
T1510 000:723.321 - 0.012ms returns 0x00
T1510 000:723.329 JLINK_ReadReg(R0)
T1510 000:723.338 - 0.012ms returns 0x00000000
T1510 000:723.557 JLINK_WriteMem(0x200001B0, 0x250 Bytes, ...)
T1510 000:723.570   Data:  18 D0 B0 F5 80 6F 19 D1 10 E0 B0 F5 C0 6F 06 D0 ...
T1510 000:723.587   CPU_WriteMem(592 bytes @ 0x200001B0)
T1510 000:727.004 - 3.455ms returns 0x250
T1510 000:727.018 JLINK_WriteMem(0x20000400, 0x1B0 Bytes, ...)
T1510 000:727.027   Data:  06 D0 02 28 06 D0 03 28 0A D1 06 E0 0C 92 08 E0 ...
T1510 000:727.042   CPU_WriteMem(432 bytes @ 0x20000400)
T1510 000:729.636 - 2.623ms returns 0x1B0
T1510 000:729.648 JLINK_HasError()
T1510 000:729.657 JLINK_WriteReg(R0, 0x08001800)
T1510 000:729.666 - 0.013ms returns 0
T1510 000:729.675 JLINK_WriteReg(R1, 0x00000400)
T1510 000:729.683 - 0.011ms returns 0
T1510 000:729.691 JLINK_WriteReg(R2, 0x200001B0)
T1510 000:729.699 - 0.011ms returns 0
T1510 000:729.707 JLINK_WriteReg(R3, 0x00000000)
T1510 000:729.716 - 0.012ms returns 0
T1510 000:729.724 JLINK_WriteReg(R4, 0x00000000)
T1510 000:729.732 - 0.012ms returns 0
T1510 000:729.741 JLINK_WriteReg(R5, 0x00000000)
T1510 000:729.748 - 0.011ms returns 0
T1510 000:729.757 JLINK_WriteReg(R6, 0x00000000)
T1510 000:729.765 - 0.011ms returns 0
T1510 000:729.773 JLINK_WriteReg(R7, 0x00000000)
T1510 000:729.781 - 0.011ms returns 0
T1510 000:729.789 JLINK_WriteReg(R8, 0x00000000)
T1510 000:729.797 - 0.011ms returns 0
T1510 000:729.806 JLINK_WriteReg(R9, 0x200001A8)
T1510 000:729.814 - 0.011ms returns 0
T1510 000:729.822 JLINK_WriteReg(R10, 0x00000000)
T1510 000:729.830 - 0.011ms returns 0
T1510 000:729.838 JLINK_WriteReg(R11, 0x00000000)
T1510 000:729.846 - 0.011ms returns 0
T1510 000:729.855 JLINK_WriteReg(R12, 0x00000000)
T1510 000:729.863 - 0.011ms returns 0
T1510 000:729.871 JLINK_WriteReg(R13 (SP), 0x20001000)
T1510 000:729.879 - 0.012ms returns 0
T1510 000:729.888 JLINK_WriteReg(R14, 0x20000001)
T1510 000:729.896 - 0.011ms returns 0
T1510 000:729.904 JLINK_WriteReg(R15 (PC), 0x20000102)
T1510 000:729.912 - 0.011ms returns 0
T1510 000:729.920 JLINK_WriteReg(XPSR, 0x01000000)
T1510 000:729.928 - 0.011ms returns 0
T1510 000:729.937 JLINK_WriteReg(MSP, 0x20001000)
T1510 000:729.945 - 0.012ms returns 0
T1510 000:729.954 JLINK_WriteReg(PSP, 0x20001000)
T1510 000:729.962 - 0.011ms returns 0
T1510 000:729.970 JLINK_WriteReg(CFBP, 0x00000000)
T1510 000:729.982 - 0.017ms returns 0
T1510 000:729.992 JLINK_SetBPEx(Addr = 0x20000000, Type = 0xFFFFFFF2)
T1510 000:730.000 - 0.012ms returns 0x0000000B
T1510 000:730.009 JLINK_Go()
T1510 000:730.021   CPU_ReadMem(4 bytes @ 0xE0001000)
T1510 000:733.334 - 3.330ms
T1510 000:733.345 JLINK_IsHalted()
T1510 000:733.836 - 0.496ms returns FALSE
T1510 000:733.848 JLINK_HasError()
T1510 000:734.937 JLINK_IsHalted()
T1510 000:735.424 - 0.495ms returns FALSE
T1510 000:735.439 JLINK_HasError()
T1510 000:736.933 JLINK_IsHalted()
T1510 000:737.378 - 0.449ms returns FALSE
T1510 000:737.390 JLINK_HasError()
T1510 000:740.915 JLINK_IsHalted()
T1510 000:741.408 - 0.503ms returns FALSE
T1510 000:741.425 JLINK_HasError()
T1510 000:744.903 JLINK_IsHalted()
T1510 000:745.378 - 0.480ms returns FALSE
T1510 000:745.389 JLINK_HasError()
T1510 000:751.880 JLINK_IsHalted()
T1510 000:754.663   CPU_ReadMem(2 bytes @ 0x20000000)
T1510 000:755.113 - 3.237ms returns TRUE
T1510 000:755.124 JLINK_ReadReg(R15 (PC))
T1510 000:755.134 - 0.013ms returns 0x20000000
T1510 000:755.143 JLINK_ClrBPEx(BPHandle = 0x0000000B)
T1510 000:755.151 - 0.012ms returns 0x00
T1510 000:755.160 JLINK_ReadReg(R0)
T1510 000:755.168 - 0.011ms returns 0x00000000
T1510 000:755.381 JLINK_WriteMem(0x200001B0, 0x250 Bytes, ...)
T1510 000:755.393   Data:  00 BF 13 4A 12 68 02 F0 00 62 00 2A F9 D0 10 4A ...
T1510 000:755.409   CPU_WriteMem(592 bytes @ 0x200001B0)
T1510 000:758.827 - 3.453ms returns 0x250
T1510 000:758.840 JLINK_WriteMem(0x20000400, 0x1B0 Bytes, ...)
T1510 000:758.849   Data:  FF F7 64 FD 07 46 0F E0 02 20 FF F7 5F FD 07 46 ...
T1510 000:758.864   CPU_WriteMem(432 bytes @ 0x20000400)
T1510 000:761.547 - 2.712ms returns 0x1B0
T1510 000:761.558 JLINK_HasError()
T1510 000:761.568 JLINK_WriteReg(R0, 0x08001C00)
T1510 000:761.577 - 0.013ms returns 0
T1510 000:761.586 JLINK_WriteReg(R1, 0x00000400)
T1510 000:761.594 - 0.012ms returns 0
T1510 000:761.602 JLINK_WriteReg(R2, 0x200001B0)
T1510 000:761.611 - 0.012ms returns 0
T1510 000:761.619 JLINK_WriteReg(R3, 0x00000000)
T1510 000:761.627 - 0.011ms returns 0
T1510 000:761.635 JLINK_WriteReg(R4, 0x00000000)
T1510 000:761.643 - 0.011ms returns 0
T1510 000:761.651 JLINK_WriteReg(R5, 0x00000000)
T1510 000:761.659 - 0.011ms returns 0
T1510 000:761.668 JLINK_WriteReg(R6, 0x00000000)
T1510 000:761.676 - 0.011ms returns 0
T1510 000:761.684 JLINK_WriteReg(R7, 0x00000000)
T1510 000:761.692 - 0.012ms returns 0
T1510 000:761.701 JLINK_WriteReg(R8, 0x00000000)
T1510 000:761.709 - 0.011ms returns 0
T1510 000:761.717 JLINK_WriteReg(R9, 0x200001A8)
T1510 000:761.725 - 0.011ms returns 0
T1510 000:761.733 JLINK_WriteReg(R10, 0x00000000)
T1510 000:761.741 - 0.011ms returns 0
T1510 000:761.750 JLINK_WriteReg(R11, 0x00000000)
T1510 000:761.758 - 0.011ms returns 0
T1510 000:761.766 JLINK_WriteReg(R12, 0x00000000)
T1510 000:761.774 - 0.012ms returns 0
T1510 000:761.782 JLINK_WriteReg(R13 (SP), 0x20001000)
T1510 000:761.791 - 0.012ms returns 0
T1510 000:761.799 JLINK_WriteReg(R14, 0x20000001)
T1510 000:761.807 - 0.011ms returns 0
T1510 000:761.816 JLINK_WriteReg(R15 (PC), 0x20000102)
T1510 000:761.824 - 0.012ms returns 0
T1510 000:761.832 JLINK_WriteReg(XPSR, 0x01000000)
T1510 000:761.840 - 0.012ms returns 0
T1510 000:761.849 JLINK_WriteReg(MSP, 0x20001000)
T1510 000:761.858 - 0.012ms returns 0
T1510 000:761.866 JLINK_WriteReg(PSP, 0x20001000)
T1510 000:761.874 - 0.012ms returns 0
T1510 000:761.883 JLINK_WriteReg(CFBP, 0x00000000)
T1510 000:761.891 - 0.012ms returns 0
T1510 000:761.899 JLINK_SetBPEx(Addr = 0x20000000, Type = 0xFFFFFFF2)
T1510 000:761.909 - 0.014ms returns 0x0000000C
T1510 000:761.918 JLINK_Go()
T1510 000:761.930   CPU_ReadMem(4 bytes @ 0xE0001000)
T1510 000:765.244 - 3.335ms
T1510 000:765.261 JLINK_IsHalted()
T1510 000:765.715 - 0.459ms returns FALSE
T1510 000:765.726 JLINK_HasError()
T1510 000:766.830 JLINK_IsHalted()
T1510 000:767.300 - 0.479ms returns FALSE
T1510 000:767.316 JLINK_HasError()
T1510 000:768.822 JLINK_IsHalted()
T1510 000:769.253 - 0.438ms returns FALSE
T1510 000:769.267 JLINK_HasError()
T1510 000:772.814 JLINK_IsHalted()
T1510 000:773.380 - 0.576ms returns FALSE
T1510 000:773.398 JLINK_HasError()
T1510 000:774.811 JLINK_IsHalted()
T1510 000:775.298 - 0.493ms returns FALSE
T1510 000:775.311 JLINK_HasError()
T1510 000:776.795 JLINK_IsHalted()
T1510 000:777.275 - 0.485ms returns FALSE
T1510 000:777.286 JLINK_HasError()
T1510 000:780.790 JLINK_IsHalted()
T1510 000:783.619   CPU_ReadMem(2 bytes @ 0x20000000)
T1510 000:784.049 - 3.265ms returns TRUE
T1510 000:784.061 JLINK_ReadReg(R15 (PC))
T1510 000:784.071 - 0.013ms returns 0x20000000
T1510 000:784.080 JLINK_ClrBPEx(BPHandle = 0x0000000C)
T1510 000:784.088 - 0.012ms returns 0x00
T1510 000:784.097 JLINK_ReadReg(R0)
T1510 000:784.105 - 0.012ms returns 0x00000000
T1510 000:784.414 JLINK_WriteMem(0x200001B0, 0x250 Bytes, ...)
T1510 000:784.426   Data:  04 00 00 00 08 00 00 00 10 00 00 00 20 00 00 00 ...
T1510 000:784.442   CPU_WriteMem(592 bytes @ 0x200001B0)
T1510 000:787.826 - 3.418ms returns 0x250
T1510 000:787.838 JLINK_WriteMem(0x20000400, 0x1B0 Bytes, ...)
T1510 000:787.846   Data:  FF FF FF FF FF FF FF FF FF FF FF FF FF FF FF FF ...
T1510 000:787.860   CPU_WriteMem(432 bytes @ 0x20000400)
T1510 000:790.512 - 2.682ms returns 0x1B0
T1510 000:790.527 JLINK_HasError()
T1510 000:790.537 JLINK_WriteReg(R0, 0x08002000)
T1510 000:790.548 - 0.015ms returns 0
T1510 000:790.558 JLINK_WriteReg(R1, 0x000000C8)
T1510 000:790.568 - 0.014ms returns 0
T1510 000:790.578 JLINK_WriteReg(R2, 0x200001B0)
T1510 000:790.587 - 0.014ms returns 0
T1510 000:790.597 JLINK_WriteReg(R3, 0x00000000)
T1510 000:790.606 - 0.013ms returns 0
T1510 000:790.616 JLINK_WriteReg(R4, 0x00000000)
T1510 000:790.626 - 0.014ms returns 0
T1510 000:790.636 JLINK_WriteReg(R5, 0x00000000)
T1510 000:790.645 - 0.013ms returns 0
T1510 000:790.655 JLINK_WriteReg(R6, 0x00000000)
